T25C4 8093:572 SEGGER J-Link V6.30h Log File (0001ms, 44784ms total)
T25C4 8093:572 DLL Compiled: Mar 16 2018 18:02:51 (0001ms, 44784ms total)
T25C4 8093:572 Logging started @ 2019-03-28 11:37 (0001ms, 44784ms total)
T25C4 8093:573 JLINK_SetWarnOutHandler(...) (0000ms, 44784ms total)
T25C4 8093:573 JLINK_OpenEx(...)
Firmware: J-Link ARM-OB STM32 compiled Aug 22 2012 19:52:04
Hardware: V7.00
S/N: 20090928
Feature(s): RDI,FlashDL,FlashBP,JFlash,GDBFull
TELNET listener socket opened on port 19021WEBSRV 
Starting webserver (0159ms, 44943ms total)
T25C4 8093:573 WEBSRV Webserver running on local port 19080 (0159ms, 44943ms total)
T25C4 8093:573   returns O.K. (0159ms, 44943ms total)
T25C4 8093:732 JLINK_GetEmuCaps()  returns 0x88EA5833 (0000ms, 44943ms total)
T25C4 8093:732 JLINK_TIF_GetAvailable(...) (0000ms, 44943ms total)
T25C4 8093:732 JLINK_SetErrorOutHandler(...) (0000ms, 44943ms total)
T25C4 8093:732 JLINK_ExecCommand("ProjectFile = "C:\Users\Administrator\Desktop\EV450\USER\JLinkSettings.ini"", ...).   returns 0x00 (0002ms, 44945ms total)
T25C4 8093:735 JLINK_ExecCommand("Device = STM32F407ZG", ...). Device "STM32F407ZG" selected.  returns 0x00 (0005ms, 44950ms total)
T25C4 8093:740 JLINK_ExecCommand("DisableConnectionTimeout", ...).   returns 0x01 (0000ms, 44950ms total)
T25C4 8093:740 JLINK_GetHardwareVersion()  returns 0x11170 (0000ms, 44950ms total)
T25C4 8093:740 JLINK_GetDLLVersion()  returns 63008 (0000ms, 44950ms total)
T25C4 8093:740 JLINK_GetFirmwareString(...) (0000ms, 44950ms total)
T25C4 8093:759 JLINK_GetDLLVersion()  returns 63008 (0000ms, 44950ms total)
T25C4 8093:759 JLINK_GetCompileDateTime() (0000ms, 44950ms total)
T25C4 8093:761 JLINK_GetFirmwareString(...) (0000ms, 44950ms total)
T25C4 8093:763 JLINK_GetHardwareVersion()  returns 0x11170 (0000ms, 44950ms total)
T25C4 8093:776 JLINK_TIF_Select(JLINKARM_TIF_SWD)  returns 0x00 (0000ms, 44950ms total)
T25C4 8093:776 JLINK_SetSpeed(5000) (0000ms, 44950ms total)
T25C4 8093:776 JLINK_GetId() >0x10B TIF>Found SW-DP with ID 0x2BA01477 >0x0D TIF> >0x28 TIF> >0x0D TIF> >0x28 TIF> >0x0D TIF> >0x28 TIF> >0x0D TIF> >0x28 TIF> >0x0D TIF> >0x21 TIF> >0x0D TIF> >0x28 TIF> >0x0D TIF> >0x28 TIF> >0x0D TIF> >0x28 TIF> >0x0D TIF> >0x21 TIF> >0x0D TIF> >0x21 TIF> >0x0D TIF> >0x28 TIF> >0x0D TIF> >0x21 TIF> >0x0D TIF> >0x21 TIF> >0x0D TIF> >0x28 TIF> >0x0D TIF> >0x21 TIF> >0x0D TIF> >0x21 TIF> >0x0D TIF> >0x28 TIF> >0x0D TIF> >0x21 TIF> >0x0D TIF> >0x21 TIF> >0x0D TIF>
 >0x28 TIF> >0x0D TIF> >0x21 TIF> >0x0D TIF> >0x21 TIF> >0x0D TIF> >0x28 TIF> >0x0D TIF> >0x21 TIF> >0x0D TIF> >0x21 TIF> >0x10B TIF>Found SW-DP with ID 0x2BA01477 >0x0D TIF> >0x28 TIF> >0x0D TIF> >0x28 TIF> >0x0D TIF> >0x28 TIF> >0x0D TIF> >0x28 TIF> >0x0D TIF> >0x21 TIF> >0x0D TIF> >0x28 TIF>Scanning AP map to find all available APs >0x0D TIF> >0x28 TIF> >0x0D TIF> >0x21 TIF> >0x0D TIF> >0x21 TIF> >0x0D TIF> >0x28 TIF> >0x0D TIF> >0x21 TIF> >0x0D TIF> >0x21 TIF>
AP[1]: Stopped AP scan as end of AP map has been reachedAP[0]: AHB-AP (IDR: 0x24770011)Iterating through AP map to find AHB-AP to use >0x42 TIF> >0x28 TIF> >0x0D TIF> >0x28 TIF> >0x0D TIF> >0x21 TIF> >0x0D TIF> >0x21 TIF> >0x42 TIF> >0x28 TIF> >0x0D TIF> >0x28 TIF> >0x0D TIF> >0x28 TIF> >0x0D TIF> >0x21 TIF> >0x0D TIF> >0x21 TIF>AP[0]: Core foundAP[0]: AHB-AP ROM base: 0xE00FF000 >0x0D TIF> >0x28 TIF> >0x0D TIF> >0x28 TIF> >0x0D TIF> >0x28 TIF> >0x0D TIF> >0x21 TIF> >0x0D TIF> >0x21 TIF>
CPUID register: 0x410FC241. Implementer code: 0x41 (ARM)Found Cortex-M4 r0p1, Little endian. -- CPU_ReadMem(4 bytes @ 0xE000EDF0) -- CPU_WriteMem(4 bytes @ 0xE000EDF0) -- CPU_ReadMem(4 bytes @ 0xE0002000)FPUnit: 6 code (BP) slots and 2 literal slots -- CPU_ReadMem(4 bytes @ 0xE000EDFC) -- CPU_WriteMem(4 bytes @ 0xE000EDFC) -- CPU_ReadMem(4 bytes @ 0xE0001000) -- CPU_WriteMem(4 bytes @ 0xE0001000) -- CPU_ReadMem(4 bytes @ 0xE000ED88) -- CPU_WriteMem(4 bytes @ 0xE000ED88)
 -- CPU_ReadMem(4 bytes @ 0xE000ED88) -- CPU_WriteMem(4 bytes @ 0xE000ED88)CoreSight components:ROMTbl[0] @ E00FF000 -- CPU_ReadMem(16 bytes @ 0xE00FF000) -- CPU_ReadMem(16 bytes @ 0xE000EFF0) -- CPU_ReadMem(16 bytes @ 0xE000EFE0)ROMTbl[0][0]: E000E000, CID: B105E00D, PID: 000BB00C SCS-M7 -- CPU_ReadMem(16 bytes @ 0xE0001FF0) -- CPU_ReadMem(16 bytes @ 0xE0001FE0)ROMTbl[0][1]: E0001000, CID: B105E00D, PID: 003BB002 DWT -- CPU_ReadMem(16 bytes @ 0xE0002FF0) -- CPU_ReadMem(16 bytes @ 0xE0002FE0)
ROMTbl[0][2]: E0002000, CID: B105E00D, PID: 002BB003 FPB -- CPU_ReadMem(16 bytes @ 0xE0000FF0) -- CPU_ReadMem(16 bytes @ 0xE0000FE0)ROMTbl[0][3]: E0000000, CID: B105E00D, PID: 003BB001 ITM -- CPU_ReadMem(16 bytes @ 0xE00FF010) -- CPU_ReadMem(16 bytes @ 0xE0040FF0) -- CPU_ReadMem(16 bytes @ 0xE0040FE0)ROMTbl[0][4]: E0040000, CID: B105900D, PID: 000BB9A1 TPIU -- CPU_ReadMem(16 bytes @ 0xE0041FF0) -- CPU_ReadMem(16 bytes @ 0xE0041FE0)ROMTbl[0][5]: E0041000, CID: B105900D, PID: 000BB925 ETM >0x0D TIF>
 >0x21 TIF>  returns 0x2BA01477 (0224ms, 45174ms total)
T25C4 8094:000 JLINK_GetDLLVersion()  returns 63008 (0000ms, 45174ms total)
T25C4 8094:000 JLINK_CORE_GetFound()  returns 0xE0000FF (0000ms, 45174ms total)
T25C4 8094:000 JLINK_GetDebugInfo(0x100 = JLINKARM_ROM_TABLE_ADDR_INDEX) -- Value=0xE00FF000  returns 0x00 (0000ms, 45174ms total)
T25C4 8094:002 JLINK_GetDebugInfo(0x100 = JLINKARM_ROM_TABLE_ADDR_INDEX) -- Value=0xE00FF000  returns 0x00 (0000ms, 45174ms total)
T25C4 8094:002 JLINK_GetDebugInfo(0x101 = JLINKARM_DEBUG_INFO_ETM_ADDR_INDEX) -- Value=0xE0041000  returns 0x00 (0000ms, 45174ms total)
T25C4 8094:002 JLINK_ReadMemEx(0xE0041FD0, 0x0020 Bytes, ..., Flags = 0x02000004) -- CPU_ReadMem(32 bytes @ 0xE0041FD0) - Data: 04 00 00 00 00 00 00 00 00 00 00 00 00 00 00 00 ...  returns 0x20 (0001ms, 45175ms total)
T25C4 8094:003 JLINK_GetDebugInfo(0x102 = JLINKARM_DEBUG_INFO_MTB_ADDR_INDEX) -- Value=0x00000000  returns 0x00 (0000ms, 45175ms total)
T25C4 8094:003 JLINK_GetDebugInfo(0x103 = JLINKARM_DEBUG_INFO_TPIU_ADDR_INDEX) -- Value=0xE0040000  returns 0x00 (0000ms, 45175ms total)
T25C4 8094:003 JLINK_GetDebugInfo(0x104 = JLINKARM_DEBUG_INFO_ITM_ADDR_INDEX) -- Value=0xE0000000  returns 0x00 (0000ms, 45175ms total)
T25C4 8094:003 JLINK_GetDebugInfo(0x105 = JLINKARM_DEBUG_INFO_DWT_ADDR_INDEX) -- Value=0xE0001000  returns 0x00 (0000ms, 45175ms total)
T25C4 8094:003 JLINK_GetDebugInfo(0x106 = JLINKARM_DEBUG_INFO_FPB_ADDR_INDEX) -- Value=0xE0002000  returns 0x00 (0000ms, 45175ms total)
T25C4 8094:003 JLINK_GetDebugInfo(0x107 = JLINKARM_DEBUG_INFO_NVIC_ADDR_INDEX) -- Value=0xE000E000  returns 0x00 (0000ms, 45175ms total)
T25C4 8094:003 JLINK_GetDebugInfo(0x10C = JLINKARM_DEBUG_INFO_DBG_ADDR_INDEX) -- Value=0xE000EDF0  returns 0x00 (0000ms, 45175ms total)
T25C4 8094:003 JLINK_GetDebugInfo(0x01 = Unknown) -- Value=0x00000001  returns 0x00 (0000ms, 45175ms total)
T25C4 8094:003 JLINK_ReadMemU32(0xE000ED00, 0x0001 Items, ...) -- CPU_ReadMem(4 bytes @ 0xE000ED00) - Data: 41 C2 0F 41  returns 0x01 (0002ms, 45177ms total)
T25C4 8094:005 JLINK_GetDebugInfo(0x10F = JLINKARM_DEBUG_INFO_HAS_CORTEX_M_SECURITY_EXT_INDEX) -- Value=0x00000000  returns 0x00 (0000ms, 45177ms total)
T25C4 8094:005 JLINK_SetResetType(JLINKARM_CM3_RESET_TYPE_NORMAL)  returns JLINKARM_CM3_RESET_TYPE_NORMAL (0000ms, 45177ms total)
T25C4 8094:005 JLINK_Reset() -- CPU is running -- CPU_WriteMem(4 bytes @ 0xE000EDF0) -- CPU is running -- CPU_WriteMem(4 bytes @ 0xE000EDFC)Reset: Halt core after reset via DEMCR.VC_CORERESET. >0x35 TIF>Reset: Reset device via AIRCR.SYSRESETREQ. -- CPU is running -- CPU_WriteMem(4 bytes @ 0xE000ED0C) >0x0D TIF> >0x28 TIF> -- CPU_ReadMem(4 bytes @ 0xE000EDF0) -- CPU_ReadMem(4 bytes @ 0xE000EDF0) -- CPU is running -- CPU_WriteMem(4 bytes @ 0xE000EDF0) -- CPU is running -- CPU_WriteMem(4 bytes @ 0xE000EDFC)
 -- CPU_ReadMem(4 bytes @ 0xE000EDF0) -- CPU_WriteMem(4 bytes @ 0xE0002000) -- CPU_ReadMem(4 bytes @ 0xE000EDFC) -- CPU_ReadMem(4 bytes @ 0xE0001000) (0083ms, 45260ms total)
T25C4 8094:088 JLINK_Halt()  returns 0x00 (0000ms, 45260ms total)
T25C4 8094:088 JLINK_ReadMemU32(0xE000EDF0, 0x0001 Items, ...) -- CPU_ReadMem(4 bytes @ 0xE000EDF0) - Data: 03 00 03 00  returns 0x01 (0000ms, 45260ms total)
T25C4 8094:088 JLINK_WriteU32(0xE000EDF0, 0xA05F0003) -- CPU_WriteMem(4 bytes @ 0xE000EDF0)  returns 0x00 (0001ms, 45261ms total)
T25C4 8094:089 JLINK_WriteU32(0xE000EDFC, 0x01000000) -- CPU_WriteMem(4 bytes @ 0xE000EDFC)  returns 0x00 (0000ms, 45261ms total)
T25C4 8094:126 JLINK_GetHWStatus(...)  returns 0x00 (0001ms, 45262ms total)
T25C4 8094:156 JLINK_GetNumBPUnits(Type = 0xFFFFFF00)  returns 0x06 (0000ms, 45262ms total)
T25C4 8094:156 JLINK_GetNumBPUnits(Type = 0xF0)  returns 0x2000 (0000ms, 45262ms total)
T25C4 8094:156 JLINK_GetNumWPUnits()  returns 0x04 (0000ms, 45262ms total)
T25C4 8094:170 JLINK_GetSpeed()  returns 0xFA0 (0000ms, 45262ms total)
T25C4 8094:190 JLINK_ReadMemU32(0xE000E004, 0x0001 Items, ...) -- CPU_ReadMem(4 bytes @ 0xE000E004) - Data: 02 00 00 00  returns 0x01 (0001ms, 45263ms total)
T25C4 8094:191 JLINK_ReadMemU32(0xE000E004, 0x0001 Items, ...) -- CPU_ReadMem(4 bytes @ 0xE000E004) - Data: 02 00 00 00  returns 0x01 (0001ms, 45264ms total)
T25C4 8094:192 JLINK_WriteMemEx(0xE0001000, 0x001C Bytes, ..., Flags = 0x02000004) - Data: 01 00 00 00 00 00 00 00 00 00 00 00 00 00 00 00 ... -- CPU_WriteMem(28 bytes @ 0xE0001000)  returns 0x1C (0002ms, 45266ms total)
T25C4 8094:194 JLINK_Halt()  returns 0x00 (0000ms, 45266ms total)
T25C4 8094:194 JLINK_IsHalted()  returns TRUE (0000ms, 45266ms total)
T25C4 8094:198 JLINK_WriteMem(0x20000000, 0x0180 Bytes, ...) - Data: 00 BE 0A E0 0D 78 2D 06 68 40 08 24 40 00 00 D3 ... -- CPU_WriteMem(384 bytes @ 0x20000000)  returns 0x180 (0007ms, 45273ms total)
T25C4 8094:205 JLINK_WriteReg(R0, 0x08000000)  returns 0x00 (0000ms, 45273ms total)
T25C4 8094:205 JLINK_WriteReg(R1, 0x007A1200)  returns 0x00 (0000ms, 45273ms total)
T25C4 8094:205 JLINK_WriteReg(R2, 0x00000001)  returns 0x00 (0000ms, 45273ms total)
T25C4 8094:205 JLINK_WriteReg(R3, 0x00000000)  returns 0x00 (0000ms, 45273ms total)
T25C4 8094:205 JLINK_WriteReg(R4, 0x00000000)  returns 0x00 (0000ms, 45273ms total)
T25C4 8094:205 JLINK_WriteReg(R5, 0x00000000)  returns 0x00 (0000ms, 45273ms total)
T25C4 8094:205 JLINK_WriteReg(R6, 0x00000000)  returns 0x00 (0000ms, 45273ms total)
T25C4 8094:205 JLINK_WriteReg(R7, 0x00000000)  returns 0x00 (0000ms, 45273ms total)
T25C4 8094:205 JLINK_WriteReg(R8, 0x00000000)  returns 0x00 (0000ms, 45273ms total)
T25C4 8094:205 JLINK_WriteReg(R9, 0x2000017C)  returns 0x00 (0000ms, 45273ms total)
T25C4 8094:205 JLINK_WriteReg(R10, 0x00000000)  returns 0x00 (0000ms, 45273ms total)
T25C4 8094:205 JLINK_WriteReg(R11, 0x00000000)  returns 0x00 (0000ms, 45273ms total)
T25C4 8094:206 JLINK_WriteReg(R12, 0x00000000)  returns 0x00 (0000ms, 45273ms total)
T25C4 8094:206 JLINK_WriteReg(R13 (SP), 0x20001000)  returns 0x00 (0000ms, 45273ms total)
T25C4 8094:206 JLINK_WriteReg(R14, 0x20000001)  returns 0x00 (0000ms, 45273ms total)
T25C4 8094:206 JLINK_WriteReg(R15 (PC), 0x20000054)  returns 0x00 (0000ms, 45273ms total)
T25C4 8094:206 JLINK_WriteReg(XPSR, 0x01000000)  returns 0x00 (0000ms, 45273ms total)
T25C4 8094:206 JLINK_WriteReg(MSP, 0x20001000)  returns 0x00 (0000ms, 45273ms total)
T25C4 8094:206 JLINK_WriteReg(PSP, 0x20001000)  returns 0x00 (0000ms, 45273ms total)
T25C4 8094:206 JLINK_WriteReg(CFBP, 0x00000000)  returns 0x00 (0000ms, 45273ms total)
T25C4 8094:206 JLINK_SetBPEx(Addr = 0x20000000, Type = 0xFFFFFFF2) -- CPU_ReadMem(2 bytes @ 0x20000000)  returns 0x00000001 (0000ms, 45273ms total)
T25C4 8094:206 JLINK_Go() -- CPU_WriteMem(2 bytes @ 0x20000000) -- CPU_ReadMem(4 bytes @ 0xE0001000) -- CPU_WriteMem(4 bytes @ 0xE0002008) -- CPU_WriteMem(4 bytes @ 0xE000200C) -- CPU_WriteMem(4 bytes @ 0xE0002010) -- CPU_WriteMem(4 bytes @ 0xE0002014) -- CPU_WriteMem(4 bytes @ 0xE0002018) -- CPU_WriteMem(4 bytes @ 0xE000201C) -- CPU_WriteMem(4 bytes @ 0xE0001004) (0007ms, 45280ms total)
T25C4 8094:213 JLINK_IsHalted() -- CPU_ReadMem(2 bytes @ 0x20000000)  returns TRUE (0005ms, 45285ms total)
T25C4 8094:218 JLINK_ReadReg(R15 (PC))  returns 0x20000000 (0001ms, 45281ms total)
T25C4 8094:219 JLINK_ClrBPEx(BPHandle = 0x00000001)  returns 0x00 (0000ms, 45281ms total)
T25C4 8094:219 JLINK_ReadReg(R0)  returns 0x00000000 (0000ms, 45281ms total)
T25C4 8094:221 JLINK_WriteReg(R0, 0x08000000)  returns 0x00 (0001ms, 45282ms total)
T25C4 8094:222 JLINK_WriteReg(R1, 0x00004000)  returns 0x00 (0000ms, 45282ms total)
T25C4 8094:222 JLINK_WriteReg(R2, 0x000000FF)  returns 0x00 (0000ms, 45282ms total)
T25C4 8094:222 JLINK_WriteReg(R3, 0x00000000)  returns 0x00 (0000ms, 45282ms total)
T25C4 8094:222 JLINK_WriteReg(R4, 0x00000000)  returns 0x00 (0000ms, 45282ms total)
T25C4 8094:222 JLINK_WriteReg(R5, 0x00000000)  returns 0x00 (0000ms, 45282ms total)
T25C4 8094:222 JLINK_WriteReg(R6, 0x00000000)  returns 0x00 (0000ms, 45282ms total)
T25C4 8094:222 JLINK_WriteReg(R7, 0x00000000)  returns 0x00 (0000ms, 45282ms total)
T25C4 8094:222 JLINK_WriteReg(R8, 0x00000000)  returns 0x00 (0000ms, 45282ms total)
T25C4 8094:222 JLINK_WriteReg(R9, 0x2000017C)  returns 0x00 (0000ms, 45282ms total)
T25C4 8094:222 JLINK_WriteReg(R10, 0x00000000)  returns 0x00 (0000ms, 45282ms total)
T25C4 8094:222 JLINK_WriteReg(R11, 0x00000000)  returns 0x00 (0000ms, 45282ms total)
T25C4 8094:222 JLINK_WriteReg(R12, 0x00000000)  returns 0x00 (0001ms, 45283ms total)
T25C4 8094:223 JLINK_WriteReg(R13 (SP), 0x20001000)  returns 0x00 (0000ms, 45283ms total)
T25C4 8094:223 JLINK_WriteReg(R14, 0x20000001)  returns 0x00 (0000ms, 45283ms total)
T25C4 8094:223 JLINK_WriteReg(R15 (PC), 0x20000020)  returns 0x00 (0000ms, 45283ms total)
T25C4 8094:223 JLINK_WriteReg(XPSR, 0x01000000)  returns 0x00 (0000ms, 45283ms total)
T25C4 8094:223 JLINK_WriteReg(MSP, 0x20001000)  returns 0x00 (0000ms, 45283ms total)
T25C4 8094:223 JLINK_WriteReg(PSP, 0x20001000)  returns 0x00 (0000ms, 45283ms total)
T25C4 8094:223 JLINK_WriteReg(CFBP, 0x00000000)  returns 0x00 (0000ms, 45283ms total)
T25C4 8094:223 JLINK_SetBPEx(Addr = 0x20000000, Type = 0xFFFFFFF2)  returns 0x00000002 (0000ms, 45283ms total)
T25C4 8094:223 JLINK_Go() -- CPU_ReadMem(4 bytes @ 0xE0001000) (0004ms, 45287ms total)
T25C4 8094:227 JLINK_IsHalted() -- CPU_ReadMem(2 bytes @ 0x20000000)  returns TRUE (0004ms, 45291ms total)
T25C4 8094:231 JLINK_ReadReg(R15 (PC))  returns 0x20000000 (0000ms, 45287ms total)
T25C4 8094:231 JLINK_ClrBPEx(BPHandle = 0x00000002)  returns 0x00 (0000ms, 45287ms total)
T25C4 8094:231 JLINK_ReadReg(R0)  returns 0x00000001 (0000ms, 45287ms total)
T25C4 8094:231 JLINK_WriteReg(R0, 0x08000000)  returns 0x00 (0000ms, 45287ms total)
T25C4 8094:231 JLINK_WriteReg(R1, 0x00004000)  returns 0x00 (0000ms, 45287ms total)
T25C4 8094:231 JLINK_WriteReg(R2, 0x000000FF)  returns 0x00 (0000ms, 45287ms total)
T25C4 8094:231 JLINK_WriteReg(R3, 0x00000000)  returns 0x00 (0000ms, 45287ms total)
T25C4 8094:231 JLINK_WriteReg(R4, 0x00000000)  returns 0x00 (0000ms, 45287ms total)
T25C4 8094:231 JLINK_WriteReg(R5, 0x00000000)  returns 0x00 (0000ms, 45287ms total)
T25C4 8094:231 JLINK_WriteReg(R6, 0x00000000)  returns 0x00 (0000ms, 45287ms total)
T25C4 8094:231 JLINK_WriteReg(R7, 0x00000000)  returns 0x00 (0000ms, 45287ms total)
T25C4 8094:231 JLINK_WriteReg(R8, 0x00000000)  returns 0x00 (0000ms, 45287ms total)
T25C4 8094:232 JLINK_WriteReg(R9, 0x2000017C)  returns 0x00 (0000ms, 45288ms total)
T25C4 8094:232 JLINK_WriteReg(R10, 0x00000000)  returns 0x00 (0000ms, 45288ms total)
T25C4 8094:232 JLINK_WriteReg(R11, 0x00000000)  returns 0x00 (0000ms, 45288ms total)
T25C4 8094:232 JLINK_WriteReg(R12, 0x00000000)  returns 0x00 (0000ms, 45288ms total)
T25C4 8094:232 JLINK_WriteReg(R13 (SP), 0x20001000)  returns 0x00 (0000ms, 45288ms total)
T25C4 8094:232 JLINK_WriteReg(R14, 0x20000001)  returns 0x00 (0000ms, 45288ms total)
T25C4 8094:232 JLINK_WriteReg(R15 (PC), 0x200000BC)  returns 0x00 (0000ms, 45288ms total)
T25C4 8094:232 JLINK_WriteReg(XPSR, 0x01000000)  returns 0x00 (0000ms, 45288ms total)
T25C4 8094:232 JLINK_WriteReg(MSP, 0x20001000)  returns 0x00 (0000ms, 45288ms total)
T25C4 8094:232 JLINK_WriteReg(PSP, 0x20001000)  returns 0x00 (0000ms, 45288ms total)
T25C4 8094:232 JLINK_WriteReg(CFBP, 0x00000000)  returns 0x00 (0000ms, 45288ms total)
T25C4 8094:232 JLINK_SetBPEx(Addr = 0x20000000, Type = 0xFFFFFFF2)  returns 0x00000003 (0000ms, 45288ms total)
T25C4 8094:232 JLINK_Go() -- CPU_ReadMem(4 bytes @ 0xE0001000) (0003ms, 45291ms total)
T25C4 8094:235 JLINK_IsHalted()  returns FALSE (0001ms, 45292ms total)
T25C4 8094:327 JLINK_IsHalted()  returns FALSE (0000ms, 45291ms total)
T25C4 8094:329 JLINK_IsHalted()  returns FALSE (0000ms, 45291ms total)
T25C4 8094:331 JLINK_IsHalted()  returns FALSE (0000ms, 45291ms total)
T25C4 8094:340 JLINK_IsHalted()  returns FALSE (0000ms, 45291ms total)
T25C4 8094:342 JLINK_IsHalted()  returns FALSE (0000ms, 45291ms total)
T25C4 8094:344 JLINK_IsHalted()  returns FALSE (0000ms, 45291ms total)
T25C4 8094:346 JLINK_IsHalted()  returns FALSE (0000ms, 45291ms total)
T25C4 8094:348 JLINK_IsHalted()  returns FALSE (0001ms, 45292ms total)
T25C4 8094:362 JLINK_IsHalted()  returns FALSE (0000ms, 45291ms total)
T25C4 8094:364 JLINK_IsHalted()  returns FALSE (0000ms, 45291ms total)
T25C4 8094:373 JLINK_IsHalted()  returns FALSE (0000ms, 45291ms total)
T25C4 8094:375 JLINK_IsHalted()  returns FALSE (0000ms, 45291ms total)
T25C4 8094:377 JLINK_IsHalted()  returns FALSE (0000ms, 45291ms total)
T25C4 8094:386 JLINK_IsHalted()  returns FALSE (0000ms, 45291ms total)
T25C4 8094:388 JLINK_IsHalted()  returns FALSE (0000ms, 45291ms total)
T25C4 8094:390 JLINK_IsHalted()  returns FALSE (0000ms, 45291ms total)
T25C4 8094:392 JLINK_IsHalted()  returns FALSE (0001ms, 45292ms total)
T25C4 8094:395 JLINK_IsHalted()  returns FALSE (0001ms, 45292ms total)
T25C4 8094:409 JLINK_IsHalted()  returns FALSE (0000ms, 45291ms total)
T25C4 8094:411 JLINK_IsHalted()  returns FALSE (0000ms, 45291ms total)
T25C4 8094:413 JLINK_IsHalted()  returns FALSE (0000ms, 45291ms total)
T25C4 8094:414 JLINK_IsHalted()  returns FALSE (0000ms, 45291ms total)
T25C4 8094:424 JLINK_IsHalted()  returns FALSE (0000ms, 45291ms total)
T25C4 8094:431 JLINK_IsHalted()  returns FALSE (0000ms, 45291ms total)
T25C4 8094:433 JLINK_IsHalted()  returns FALSE (0001ms, 45292ms total)
T25C4 8094:436 JLINK_IsHalted()  returns FALSE (0001ms, 45292ms total)
T25C4 8094:439 JLINK_IsHalted()  returns FALSE (0000ms, 45291ms total)
T25C4 8094:441 JLINK_IsHalted()  returns FALSE (0001ms, 45292ms total)
T25C4 8094:443 JLINK_IsHalted()  returns FALSE (0000ms, 45291ms total)
T25C4 8094:445 JLINK_IsHalted()  returns FALSE (0000ms, 45291ms total)
T25C4 8094:453 JLINK_IsHalted()  returns FALSE (0000ms, 45291ms total)
T25C4 8094:455 JLINK_IsHalted()  returns FALSE (0000ms, 45291ms total)
T25C4 8094:457 JLINK_IsHalted()  returns FALSE (0000ms, 45291ms total)
T25C4 8094:463 JLINK_IsHalted()  returns FALSE (0000ms, 45291ms total)
T25C4 8094:465 JLINK_IsHalted()  returns FALSE (0000ms, 45291ms total)
T25C4 8094:467 JLINK_IsHalted()  returns FALSE (0000ms, 45291ms total)
T25C4 8094:469 JLINK_IsHalted()  returns FALSE (0000ms, 45291ms total)
T25C4 8094:471 JLINK_IsHalted()  returns FALSE (0000ms, 45291ms total)
T25C4 8094:473 JLINK_IsHalted()  returns FALSE (0001ms, 45292ms total)
T25C4 8094:476 JLINK_IsHalted()  returns FALSE (0001ms, 45292ms total)
T25C4 8094:490 JLINK_IsHalted()  returns FALSE (0000ms, 45291ms total)
T25C4 8094:492 JLINK_IsHalted()  returns FALSE (0000ms, 45291ms total)
T25C4 8094:494 JLINK_IsHalted()  returns FALSE (0000ms, 45291ms total)
T25C4 8094:496 JLINK_IsHalted()  returns FALSE (0000ms, 45291ms total)
T25C4 8094:505 JLINK_IsHalted()  returns FALSE (0000ms, 45291ms total)
T25C4 8094:512 JLINK_IsHalted()  returns FALSE (0000ms, 45291ms total)
T25C4 8094:514 JLINK_IsHalted()  returns FALSE (0001ms, 45292ms total)
T25C4 8094:516 JLINK_IsHalted()  returns FALSE (0001ms, 45292ms total)
T25C4 8094:519 JLINK_IsHalted()  returns FALSE (0001ms, 45292ms total)
T25C4 8094:522 JLINK_IsHalted()  returns FALSE (0001ms, 45292ms total)
T25C4 8094:525 JLINK_IsHalted()  returns FALSE (0001ms, 45292ms total)
T25C4 8094:533 JLINK_IsHalted()  returns FALSE (0001ms, 45292ms total)
T25C4 8094:535 JLINK_IsHalted()  returns FALSE (0000ms, 45291ms total)
T25C4 8094:543 JLINK_IsHalted()  returns FALSE (0000ms, 45291ms total)
T25C4 8094:545 JLINK_IsHalted()  returns FALSE (0000ms, 45291ms total)
T25C4 8094:547 JLINK_IsHalted()  returns FALSE (0000ms, 45291ms total)
T25C4 8094:549 JLINK_IsHalted()  returns FALSE (0000ms, 45291ms total)
T25C4 8094:551 JLINK_IsHalted()  returns FALSE (0000ms, 45291ms total)
T25C4 8094:553 JLINK_IsHalted()  returns FALSE (0000ms, 45291ms total)
T25C4 8094:555 JLINK_IsHalted()  returns FALSE (0000ms, 45291ms total)
T25C4 8094:576 JLINK_IsHalted()  returns FALSE (0000ms, 45291ms total)
T25C4 8094:578 JLINK_IsHalted()  returns FALSE (0000ms, 45291ms total)
T25C4 8094:580 JLINK_IsHalted()  returns FALSE (0000ms, 45291ms total)
T25C4 8094:589 JLINK_IsHalted()  returns FALSE (0000ms, 45291ms total)
T25C4 8094:591 JLINK_IsHalted()  returns FALSE (0000ms, 45291ms total)
T25C4 8094:593 JLINK_IsHalted()  returns FALSE (0000ms, 45291ms total)
T25C4 8094:595 JLINK_IsHalted()  returns FALSE (0000ms, 45291ms total)
T25C4 8094:597 JLINK_IsHalted()  returns FALSE (0000ms, 45291ms total)
T25C4 8094:612 JLINK_IsHalted() -- CPU_ReadMem(2 bytes @ 0x20000000)  returns TRUE (0004ms, 45295ms total)
T25C4 8094:616 JLINK_ReadReg(R15 (PC))  returns 0x20000000 (0000ms, 45291ms total)
T25C4 8094:616 JLINK_ClrBPEx(BPHandle = 0x00000003)  returns 0x00 (0000ms, 45291ms total)
T25C4 8094:616 JLINK_ReadReg(R0)  returns 0x00000000 (0001ms, 45292ms total)
T25C4 8094:618 JLINK_WriteReg(R0, 0x08004000)  returns 0x00 (0000ms, 45292ms total)
T25C4 8094:618 JLINK_WriteReg(R1, 0x00004000)  returns 0x00 (0000ms, 45292ms total)
T25C4 8094:618 JLINK_WriteReg(R2, 0x000000FF)  returns 0x00 (0000ms, 45292ms total)
T25C4 8094:618 JLINK_WriteReg(R3, 0x00000000)  returns 0x00 (0000ms, 45292ms total)
T25C4 8094:618 JLINK_WriteReg(R4, 0x00000000)  returns 0x00 (0000ms, 45292ms total)
T25C4 8094:618 JLINK_WriteReg(R5, 0x00000000)  returns 0x00 (0000ms, 45292ms total)
T25C4 8094:618 JLINK_WriteReg(R6, 0x00000000)  returns 0x00 (0000ms, 45292ms total)
T25C4 8094:618 JLINK_WriteReg(R7, 0x00000000)  returns 0x00 (0000ms, 45292ms total)
T25C4 8094:618 JLINK_WriteReg(R8, 0x00000000)  returns 0x00 (0000ms, 45292ms total)
T25C4 8094:618 JLINK_WriteReg(R9, 0x2000017C)  returns 0x00 (0000ms, 45292ms total)
T25C4 8094:618 JLINK_WriteReg(R10, 0x00000000)  returns 0x00 (0000ms, 45292ms total)
T25C4 8094:618 JLINK_WriteReg(R11, 0x00000000)  returns 0x00 (0000ms, 45292ms total)
T25C4 8094:618 JLINK_WriteReg(R12, 0x00000000)  returns 0x00 (0000ms, 45292ms total)
T25C4 8094:618 JLINK_WriteReg(R13 (SP), 0x20001000)  returns 0x00 (0000ms, 45292ms total)
T25C4 8094:618 JLINK_WriteReg(R14, 0x20000001)  returns 0x00 (0000ms, 45292ms total)
T25C4 8094:618 JLINK_WriteReg(R15 (PC), 0x20000020)  returns 0x00 (0000ms, 45292ms total)
T25C4 8094:618 JLINK_WriteReg(XPSR, 0x01000000)  returns 0x00 (0000ms, 45292ms total)
T25C4 8094:618 JLINK_WriteReg(MSP, 0x20001000)  returns 0x00 (0000ms, 45292ms total)
T25C4 8094:618 JLINK_WriteReg(PSP, 0x20001000)  returns 0x00 (0000ms, 45292ms total)
T25C4 8094:618 JLINK_WriteReg(CFBP, 0x00000000)  returns 0x00 (0000ms, 45292ms total)
T25C4 8094:618 JLINK_SetBPEx(Addr = 0x20000000, Type = 0xFFFFFFF2)  returns 0x00000004 (0000ms, 45292ms total)
T25C4 8094:618 JLINK_Go() -- CPU_ReadMem(4 bytes @ 0xE0001000) (0003ms, 45295ms total)
T25C4 8094:621 JLINK_IsHalted() -- CPU_ReadMem(2 bytes @ 0x20000000)  returns TRUE (0004ms, 45299ms total)
T25C4 8094:625 JLINK_ReadReg(R15 (PC))  returns 0x20000000 (0000ms, 45295ms total)
T25C4 8094:625 JLINK_ClrBPEx(BPHandle = 0x00000004)  returns 0x00 (0000ms, 45295ms total)
T25C4 8094:625 JLINK_ReadReg(R0)  returns 0x00000001 (0000ms, 45295ms total)
T25C4 8094:625 JLINK_WriteReg(R0, 0x08004000)  returns 0x00 (0000ms, 45295ms total)
T25C4 8094:625 JLINK_WriteReg(R1, 0x00004000)  returns 0x00 (0000ms, 45295ms total)
T25C4 8094:625 JLINK_WriteReg(R2, 0x000000FF)  returns 0x00 (0000ms, 45295ms total)
T25C4 8094:625 JLINK_WriteReg(R3, 0x00000000)  returns 0x00 (0000ms, 45295ms total)
T25C4 8094:625 JLINK_WriteReg(R4, 0x00000000)  returns 0x00 (0000ms, 45295ms total)
T25C4 8094:625 JLINK_WriteReg(R5, 0x00000000)  returns 0x00 (0000ms, 45295ms total)
T25C4 8094:625 JLINK_WriteReg(R6, 0x00000000)  returns 0x00 (0000ms, 45295ms total)
T25C4 8094:625 JLINK_WriteReg(R7, 0x00000000)  returns 0x00 (0000ms, 45295ms total)
T25C4 8094:625 JLINK_WriteReg(R8, 0x00000000)  returns 0x00 (0000ms, 45295ms total)
T25C4 8094:625 JLINK_WriteReg(R9, 0x2000017C)  returns 0x00 (0000ms, 45295ms total)
T25C4 8094:625 JLINK_WriteReg(R10, 0x00000000)  returns 0x00 (0000ms, 45295ms total)
T25C4 8094:625 JLINK_WriteReg(R11, 0x00000000)  returns 0x00 (0000ms, 45295ms total)
T25C4 8094:625 JLINK_WriteReg(R12, 0x00000000)  returns 0x00 (0000ms, 45295ms total)
T25C4 8094:625 JLINK_WriteReg(R13 (SP), 0x20001000)  returns 0x00 (0000ms, 45295ms total)
T25C4 8094:625 JLINK_WriteReg(R14, 0x20000001)  returns 0x00 (0000ms, 45295ms total)
T25C4 8094:625 JLINK_WriteReg(R15 (PC), 0x200000BC)  returns 0x00 (0000ms, 45295ms total)
T25C4 8094:625 JLINK_WriteReg(XPSR, 0x01000000)  returns 0x00 (0000ms, 45295ms total)
T25C4 8094:625 JLINK_WriteReg(MSP, 0x20001000)  returns 0x00 (0000ms, 45295ms total)
T25C4 8094:625 JLINK_WriteReg(PSP, 0x20001000)  returns 0x00 (0000ms, 45295ms total)
T25C4 8094:625 JLINK_WriteReg(CFBP, 0x00000000)  returns 0x00 (0000ms, 45295ms total)
T25C4 8094:625 JLINK_SetBPEx(Addr = 0x20000000, Type = 0xFFFFFFF2)  returns 0x00000005 (0000ms, 45295ms total)
T25C4 8094:625 JLINK_Go() -- CPU_ReadMem(4 bytes @ 0xE0001000) (0002ms, 45297ms total)
T25C4 8094:627 JLINK_IsHalted()  returns FALSE (0001ms, 45298ms total)
T25C4 8094:636 JLINK_IsHalted()  returns FALSE (0000ms, 45297ms total)
T25C4 8094:638 JLINK_IsHalted()  returns FALSE (0000ms, 45297ms total)
T25C4 8094:640 JLINK_IsHalted()  returns FALSE (0000ms, 45297ms total)
T25C4 8094:642 JLINK_IsHalted()  returns FALSE (0001ms, 45298ms total)
T25C4 8094:645 JLINK_IsHalted()  returns FALSE (0001ms, 45298ms total)
T25C4 8094:648 JLINK_IsHalted()  returns FALSE (0000ms, 45297ms total)
T25C4 8094:657 JLINK_IsHalted()  returns FALSE (0001ms, 45298ms total)
T25C4 8094:663 JLINK_IsHalted()  returns FALSE (0001ms, 45298ms total)
T25C4 8094:665 JLINK_IsHalted()  returns FALSE (0001ms, 45298ms total)
T25C4 8094:668 JLINK_IsHalted()  returns FALSE (0000ms, 45297ms total)
T25C4 8094:670 JLINK_IsHalted()  returns FALSE (0000ms, 45297ms total)
T25C4 8094:672 JLINK_IsHalted()  returns FALSE (0000ms, 45297ms total)
T25C4 8094:674 JLINK_IsHalted()  returns FALSE (0000ms, 45297ms total)
T25C4 8094:676 JLINK_IsHalted()  returns FALSE (0000ms, 45297ms total)
T25C4 8094:678 JLINK_IsHalted()  returns FALSE (0000ms, 45297ms total)
T25C4 8094:693 JLINK_IsHalted()  returns FALSE (0000ms, 45297ms total)
T25C4 8094:695 JLINK_IsHalted()  returns FALSE (0000ms, 45297ms total)
T25C4 8094:705 JLINK_IsHalted()  returns FALSE (0000ms, 45297ms total)
T25C4 8094:707 JLINK_IsHalted()  returns FALSE (0000ms, 45297ms total)
T25C4 8094:709 JLINK_IsHalted()  returns FALSE (0001ms, 45298ms total)
T25C4 8094:711 JLINK_IsHalted()  returns FALSE (0001ms, 45298ms total)
T25C4 8094:713 JLINK_IsHalted()  returns FALSE (0000ms, 45297ms total)
T25C4 8094:715 JLINK_IsHalted()  returns FALSE (0000ms, 45297ms total)
T25C4 8094:721 JLINK_IsHalted()  returns FALSE (0000ms, 45297ms total)
T25C4 8094:734 JLINK_IsHalted()  returns FALSE (0001ms, 45298ms total)
T25C4 8094:736 JLINK_IsHalted()  returns FALSE (0001ms, 45298ms total)
T25C4 8094:743 JLINK_IsHalted()  returns FALSE (0000ms, 45297ms total)
T25C4 8094:745 JLINK_IsHalted()  returns FALSE (0000ms, 45297ms total)
T25C4 8094:747 JLINK_IsHalted()  returns FALSE (0000ms, 45297ms total)
T25C4 8094:749 JLINK_IsHalted()  returns FALSE (0001ms, 45298ms total)
T25C4 8094:751 JLINK_IsHalted()  returns FALSE (0001ms, 45298ms total)
T25C4 8094:753 JLINK_IsHalted()  returns FALSE (0001ms, 45299ms total)
T25C4 8094:761 JLINK_IsHalted()  returns FALSE (0001ms, 45299ms total)
T25C4 8094:765 JLINK_IsHalted()  returns FALSE (0000ms, 45298ms total)
T25C4 8094:767 JLINK_IsHalted()  returns FALSE (0000ms, 45298ms total)
T25C4 8094:770 JLINK_IsHalted()  returns FALSE (0000ms, 45298ms total)
T25C4 8094:792 JLINK_IsHalted()  returns FALSE (0000ms, 45298ms total)
T25C4 8094:794 JLINK_IsHalted()  returns FALSE (0000ms, 45298ms total)
T25C4 8094:798 JLINK_IsHalted()  returns FALSE (0000ms, 45298ms total)
T25C4 8094:800 JLINK_IsHalted()  returns FALSE (0000ms, 45298ms total)
T25C4 8094:802 JLINK_IsHalted()  returns FALSE (0000ms, 45298ms total)
T25C4 8094:848 JLINK_IsHalted()  returns FALSE (0000ms, 45298ms total)
T25C4 8094:856 JLINK_IsHalted()  returns FALSE (0001ms, 45299ms total)
T25C4 8094:859 JLINK_IsHalted()  returns FALSE (0001ms, 45299ms total)
T25C4 8094:890 JLINK_IsHalted()  returns FALSE (0000ms, 45298ms total)
T25C4 8094:893 JLINK_IsHalted()  returns FALSE (0002ms, 45300ms total)
T25C4 8094:921 JLINK_IsHalted()  returns FALSE (0000ms, 45298ms total)
T25C4 8094:925 JLINK_IsHalted()  returns FALSE (0000ms, 45298ms total)
T25C4 8094:927 JLINK_IsHalted()  returns FALSE (0000ms, 45298ms total)
T25C4 8094:935 JLINK_IsHalted()  returns FALSE (0000ms, 45298ms total)
T25C4 8094:937 JLINK_IsHalted()  returns FALSE (0000ms, 45298ms total)
T25C4 8094:940 JLINK_IsHalted()  returns FALSE (0000ms, 45298ms total)
T25C4 8094:968 JLINK_IsHalted()  returns FALSE (0000ms, 45298ms total)
T25C4 8094:972 JLINK_IsHalted()  returns FALSE (0000ms, 45298ms total)
T25C4 8094:974 JLINK_IsHalted()  returns FALSE (0000ms, 45298ms total)
T25C4 8094:976 JLINK_IsHalted()  returns FALSE (0000ms, 45298ms total)
T25C4 8094:984 JLINK_IsHalted()  returns FALSE (0000ms, 45298ms total)
T25C4 8094:988 JLINK_IsHalted() -- CPU_ReadMem(2 bytes @ 0x20000000)  returns TRUE (0005ms, 45303ms total)
T25C4 8094:993 JLINK_ReadReg(R15 (PC))  returns 0x20000000 (0000ms, 45298ms total)
T25C4 8094:993 JLINK_ClrBPEx(BPHandle = 0x00000005)  returns 0x00 (0000ms, 45298ms total)
T25C4 8094:993 JLINK_ReadReg(R0)  returns 0x00000000 (0000ms, 45298ms total)
T25C4 8094:995 JLINK_WriteReg(R0, 0x00000001)  returns 0x00 (0000ms, 45298ms total)
T25C4 8094:995 JLINK_WriteReg(R1, 0x00004000)  returns 0x00 (0000ms, 45298ms total)
T25C4 8094:995 JLINK_WriteReg(R2, 0x000000FF)  returns 0x00 (0000ms, 45298ms total)
T25C4 8094:995 JLINK_WriteReg(R3, 0x00000000)  returns 0x00 (0000ms, 45298ms total)
T25C4 8094:995 JLINK_WriteReg(R4, 0x00000000)  returns 0x00 (0000ms, 45298ms total)
T25C4 8094:995 JLINK_WriteReg(R5, 0x00000000)  returns 0x00 (0000ms, 45298ms total)
T25C4 8094:995 JLINK_WriteReg(R6, 0x00000000)  returns 0x00 (0000ms, 45298ms total)
T25C4 8094:995 JLINK_WriteReg(R7, 0x00000000)  returns 0x00 (0000ms, 45298ms total)
T25C4 8094:995 JLINK_WriteReg(R8, 0x00000000)  returns 0x00 (0000ms, 45298ms total)
T25C4 8094:995 JLINK_WriteReg(R9, 0x2000017C)  returns 0x00 (0000ms, 45298ms total)
T25C4 8094:995 JLINK_WriteReg(R10, 0x00000000)  returns 0x00 (0000ms, 45298ms total)
T25C4 8094:995 JLINK_WriteReg(R11, 0x00000000)  returns 0x00 (0000ms, 45298ms total)
T25C4 8094:995 JLINK_WriteReg(R12, 0x00000000)  returns 0x00 (0000ms, 45298ms total)
T25C4 8094:995 JLINK_WriteReg(R13 (SP), 0x20001000)  returns 0x00 (0000ms, 45298ms total)
T25C4 8094:995 JLINK_WriteReg(R14, 0x20000001)  returns 0x00 (0000ms, 45298ms total)
T25C4 8094:995 JLINK_WriteReg(R15 (PC), 0x20000082)  returns 0x00 (0000ms, 45298ms total)
T25C4 8094:995 JLINK_WriteReg(XPSR, 0x01000000)  returns 0x00 (0001ms, 45299ms total)
T25C4 8094:996 JLINK_WriteReg(MSP, 0x20001000)  returns 0x00 (0000ms, 45299ms total)
T25C4 8094:996 JLINK_WriteReg(PSP, 0x20001000)  returns 0x00 (0000ms, 45299ms total)
T25C4 8094:996 JLINK_WriteReg(CFBP, 0x00000000)  returns 0x00 (0000ms, 45299ms total)
T25C4 8094:996 JLINK_SetBPEx(Addr = 0x20000000, Type = 0xFFFFFFF2)  returns 0x00000006 (0000ms, 45299ms total)
T25C4 8094:996 JLINK_Go() -- CPU_ReadMem(4 bytes @ 0xE0001000) (0003ms, 45302ms total)
T25C4 8094:999 JLINK_IsHalted() -- CPU_ReadMem(2 bytes @ 0x20000000)  returns TRUE (0005ms, 45307ms total)
T25C4 8095:004 JLINK_ReadReg(R15 (PC))  returns 0x20000000 (0000ms, 45302ms total)
T25C4 8095:004 JLINK_ClrBPEx(BPHandle = 0x00000006)  returns 0x00 (0000ms, 45302ms total)
T25C4 8095:004 JLINK_ReadReg(R0)  returns 0x00000000 (0000ms, 45302ms total)
T25C4 8095:059 JLINK_WriteMem(0x20000000, 0x0180 Bytes, ...) - Data: 00 BE 0A E0 0D 78 2D 06 68 40 08 24 40 00 00 D3 ... -- CPU_WriteMem(384 bytes @ 0x20000000)  returns 0x180 (0006ms, 45308ms total)
T25C4 8095:065 JLINK_WriteReg(R0, 0x08000000)  returns 0x00 (0000ms, 45308ms total)
T25C4 8095:065 JLINK_WriteReg(R1, 0x007A1200)  returns 0x00 (0000ms, 45308ms total)
T25C4 8095:065 JLINK_WriteReg(R2, 0x00000002)  returns 0x00 (0000ms, 45308ms total)
T25C4 8095:065 JLINK_WriteReg(R3, 0x00000000)  returns 0x00 (0000ms, 45308ms total)
T25C4 8095:065 JLINK_WriteReg(R4, 0x00000000)  returns 0x00 (0000ms, 45308ms total)
T25C4 8095:065 JLINK_WriteReg(R5, 0x00000000)  returns 0x00 (0000ms, 45308ms total)
T25C4 8095:065 JLINK_WriteReg(R6, 0x00000000)  returns 0x00 (0000ms, 45308ms total)
T25C4 8095:065 JLINK_WriteReg(R7, 0x00000000)  returns 0x00 (0000ms, 45308ms total)
T25C4 8095:065 JLINK_WriteReg(R8, 0x00000000)  returns 0x00 (0000ms, 45308ms total)
T25C4 8095:065 JLINK_WriteReg(R9, 0x2000017C)  returns 0x00 (0000ms, 45308ms total)
T25C4 8095:065 JLINK_WriteReg(R10, 0x00000000)  returns 0x00 (0000ms, 45308ms total)
T25C4 8095:065 JLINK_WriteReg(R11, 0x00000000)  returns 0x00 (0000ms, 45308ms total)
T25C4 8095:065 JLINK_WriteReg(R12, 0x00000000)  returns 0x00 (0000ms, 45308ms total)
T25C4 8095:065 JLINK_WriteReg(R13 (SP), 0x20001000)  returns 0x00 (0000ms, 45308ms total)
T25C4 8095:065 JLINK_WriteReg(R14, 0x20000001)  returns 0x00 (0000ms, 45308ms total)
T25C4 8095:065 JLINK_WriteReg(R15 (PC), 0x20000054)  returns 0x00 (0000ms, 45308ms total)
T25C4 8095:065 JLINK_WriteReg(XPSR, 0x01000000)  returns 0x00 (0000ms, 45308ms total)
T25C4 8095:065 JLINK_WriteReg(MSP, 0x20001000)  returns 0x00 (0000ms, 45308ms total)
T25C4 8095:065 JLINK_WriteReg(PSP, 0x20001000)  returns 0x00 (0000ms, 45308ms total)
T25C4 8095:065 JLINK_WriteReg(CFBP, 0x00000000)  returns 0x00 (0000ms, 45308ms total)
T25C4 8095:065 JLINK_SetBPEx(Addr = 0x20000000, Type = 0xFFFFFFF2) -- CPU_ReadMem(2 bytes @ 0x20000000)  returns 0x00000007 (0000ms, 45308ms total)
T25C4 8095:065 JLINK_Go() -- CPU_WriteMem(2 bytes @ 0x20000000) -- CPU_ReadMem(4 bytes @ 0xE0001000) (0004ms, 45312ms total)
T25C4 8095:069 JLINK_IsHalted() -- CPU_ReadMem(2 bytes @ 0x20000000)  returns TRUE (0003ms, 45315ms total)
T25C4 8095:072 JLINK_ReadReg(R15 (PC))  returns 0x20000000 (0000ms, 45312ms total)
T25C4 8095:072 JLINK_ClrBPEx(BPHandle = 0x00000007)  returns 0x00 (0000ms, 45312ms total)
T25C4 8095:072 JLINK_ReadReg(R0)  returns 0x00000000 (0000ms, 45312ms total)
T25C4 8095:073 JLINK_WriteMem(0x20000180, 0x0280 Bytes, ...) - Data: 10 09 00 20 45 1A 00 08 E9 02 00 08 EB 02 00 08 ... -- CPU_WriteMem(640 bytes @ 0x20000180)  returns 0x280 (0008ms, 45320ms total)
T25C4 8095:082 JLINK_WriteMem(0x20000400, 0x0180 Bytes, ...) - Data: DA F8 01 F0 56 FA 00 F0 AE FB 4F F4 2F 70 01 F0 ... -- CPU_WriteMem(384 bytes @ 0x20000400)  returns 0x180 (0005ms, 45325ms total)
T25C4 8095:087 JLINK_WriteReg(R0, 0x08000000)  returns 0x00 (0000ms, 45325ms total)
T25C4 8095:087 JLINK_WriteReg(R1, 0x00000400)  returns 0x00 (0000ms, 45325ms total)
T25C4 8095:087 JLINK_WriteReg(R2, 0x20000180)  returns 0x00 (0000ms, 45325ms total)
T25C4 8095:087 JLINK_WriteReg(R3, 0x00000000)  returns 0x00 (0000ms, 45325ms total)
T25C4 8095:087 JLINK_WriteReg(R4, 0x00000000)  returns 0x00 (0000ms, 45325ms total)
T25C4 8095:087 JLINK_WriteReg(R5, 0x00000000)  returns 0x00 (0000ms, 45325ms total)
T25C4 8095:087 JLINK_WriteReg(R6, 0x00000000)  returns 0x00 (0000ms, 45325ms total)
T25C4 8095:087 JLINK_WriteReg(R7, 0x00000000)  returns 0x00 (0000ms, 45325ms total)
T25C4 8095:087 JLINK_WriteReg(R8, 0x00000000)  returns 0x00 (0000ms, 45325ms total)
T25C4 8095:087 JLINK_WriteReg(R9, 0x2000017C)  returns 0x00 (0000ms, 45325ms total)
T25C4 8095:087 JLINK_WriteReg(R10, 0x00000000)  returns 0x00 (0001ms, 45326ms total)
T25C4 8095:088 JLINK_WriteReg(R11, 0x00000000)  returns 0x00 (0000ms, 45326ms total)
T25C4 8095:088 JLINK_WriteReg(R12, 0x00000000)  returns 0x00 (0000ms, 45326ms total)
T25C4 8095:088 JLINK_WriteReg(R13 (SP), 0x20001000)  returns 0x00 (0000ms, 45326ms total)
T25C4 8095:088 JLINK_WriteReg(R14, 0x20000001)  returns 0x00 (0000ms, 45326ms total)
T25C4 8095:088 JLINK_WriteReg(R15 (PC), 0x20000108)  returns 0x00 (0000ms, 45326ms total)
T25C4 8095:088 JLINK_WriteReg(XPSR, 0x01000000)  returns 0x00 (0000ms, 45326ms total)
T25C4 8095:088 JLINK_WriteReg(MSP, 0x20001000)  returns 0x00 (0000ms, 45326ms total)
T25C4 8095:088 JLINK_WriteReg(PSP, 0x20001000)  returns 0x00 (0000ms, 45326ms total)
T25C4 8095:088 JLINK_WriteReg(CFBP, 0x00000000)  returns 0x00 (0000ms, 45326ms total)
T25C4 8095:088 JLINK_SetBPEx(Addr = 0x20000000, Type = 0xFFFFFFF2)  returns 0x00000008 (0000ms, 45326ms total)
T25C4 8095:088 JLINK_Go() -- CPU_ReadMem(4 bytes @ 0xE0001000) (0003ms, 45329ms total)
T25C4 8095:091 JLINK_IsHalted()  returns FALSE (0001ms, 45330ms total)
T25C4 8095:109 JLINK_IsHalted() -- CPU_ReadMem(2 bytes @ 0x20000000)  returns TRUE (0004ms, 45333ms total)
T25C4 8095:113 JLINK_ReadReg(R15 (PC))  returns 0x20000000 (0000ms, 45329ms total)
T25C4 8095:113 JLINK_ClrBPEx(BPHandle = 0x00000008)  returns 0x00 (0000ms, 45329ms total)
T25C4 8095:113 JLINK_ReadReg(R0)  returns 0x00000000 (0000ms, 45329ms total)
T25C4 8095:114 JLINK_WriteMem(0x20000180, 0x0280 Bytes, ...) - Data: 08 60 39 48 00 68 3D 49 08 40 37 49 08 60 3C 48 ... -- CPU_WriteMem(640 bytes @ 0x20000180)  returns 0x280 (0008ms, 45337ms total)
T25C4 8095:122 JLINK_WriteMem(0x20000400, 0x0180 Bytes, ...) - Data: 04 46 0D 46 00 21 20 46 01 F0 48 FB 00 BF 20 46 ... -- CPU_WriteMem(384 bytes @ 0x20000400)  returns 0x180 (0006ms, 45343ms total)
T25C4 8095:128 JLINK_WriteReg(R0, 0x08000400)  returns 0x00 (0000ms, 45343ms total)
T25C4 8095:128 JLINK_WriteReg(R1, 0x00000400)  returns 0x00 (0000ms, 45343ms total)
T25C4 8095:128 JLINK_WriteReg(R2, 0x20000180)  returns 0x00 (0000ms, 45343ms total)
T25C4 8095:128 JLINK_WriteReg(R3, 0x00000000)  returns 0x00 (0000ms, 45343ms total)
T25C4 8095:128 JLINK_WriteReg(R4, 0x00000000)  returns 0x00 (0000ms, 45343ms total)
T25C4 8095:128 JLINK_WriteReg(R5, 0x00000000)  returns 0x00 (0000ms, 45343ms total)
T25C4 8095:128 JLINK_WriteReg(R6, 0x00000000)  returns 0x00 (0000ms, 45343ms total)
T25C4 8095:128 JLINK_WriteReg(R7, 0x00000000)  returns 0x00 (0000ms, 45343ms total)
T25C4 8095:128 JLINK_WriteReg(R8, 0x00000000)  returns 0x00 (0000ms, 45343ms total)
T25C4 8095:128 JLINK_WriteReg(R9, 0x2000017C)  returns 0x00 (0000ms, 45343ms total)
T25C4 8095:128 JLINK_WriteReg(R10, 0x00000000)  returns 0x00 (0000ms, 45343ms total)
T25C4 8095:128 JLINK_WriteReg(R11, 0x00000000)  returns 0x00 (0000ms, 45343ms total)
T25C4 8095:128 JLINK_WriteReg(R12, 0x00000000)  returns 0x00 (0000ms, 45343ms total)
T25C4 8095:128 JLINK_WriteReg(R13 (SP), 0x20001000)  returns 0x00 (0000ms, 45343ms total)
T25C4 8095:128 JLINK_WriteReg(R14, 0x20000001)  returns 0x00 (0000ms, 45343ms total)
T25C4 8095:128 JLINK_WriteReg(R15 (PC), 0x20000108)  returns 0x00 (0000ms, 45343ms total)
T25C4 8095:128 JLINK_WriteReg(XPSR, 0x01000000)  returns 0x00 (0000ms, 45343ms total)
T25C4 8095:128 JLINK_WriteReg(MSP, 0x20001000)  returns 0x00 (0000ms, 45343ms total)
T25C4 8095:128 JLINK_WriteReg(PSP, 0x20001000)  returns 0x00 (0000ms, 45343ms total)
T25C4 8095:128 JLINK_WriteReg(CFBP, 0x00000000)  returns 0x00 (0000ms, 45343ms total)
T25C4 8095:128 JLINK_SetBPEx(Addr = 0x20000000, Type = 0xFFFFFFF2)  returns 0x00000009 (0000ms, 45343ms total)
T25C4 8095:128 JLINK_Go() -- CPU_ReadMem(4 bytes @ 0xE0001000) (0003ms, 45346ms total)
T25C4 8095:131 JLINK_IsHalted()  returns FALSE (0001ms, 45347ms total)
T25C4 8095:142 JLINK_IsHalted() -- CPU_ReadMem(2 bytes @ 0x20000000)  returns TRUE (0003ms, 45349ms total)
T25C4 8095:145 JLINK_ReadReg(R15 (PC))  returns 0x20000000 (0000ms, 45346ms total)
T25C4 8095:145 JLINK_ClrBPEx(BPHandle = 0x00000009)  returns 0x00 (0000ms, 45346ms total)
T25C4 8095:145 JLINK_ReadReg(R0)  returns 0x00000000 (0000ms, 45346ms total)
T25C4 8095:146 JLINK_WriteMem(0x20000180, 0x0280 Bytes, ...) - Data: 21 28 EE DB 21 20 0E E0 54 49 3C 31 58 4A 42 F8 ... -- CPU_WriteMem(640 bytes @ 0x20000180)  returns 0x280 (0008ms, 45354ms total)
T25C4 8095:154 JLINK_WriteMem(0x20000400, 0x0180 Bytes, ...) - Data: 2D D1 75 48 20 44 75 49 08 60 08 46 00 68 00 7A ... -- CPU_WriteMem(384 bytes @ 0x20000400)  returns 0x180 (0006ms, 45360ms total)
T25C4 8095:160 JLINK_WriteReg(R0, 0x08000800)  returns 0x00 (0000ms, 45360ms total)
T25C4 8095:160 JLINK_WriteReg(R1, 0x00000400)  returns 0x00 (0000ms, 45360ms total)
T25C4 8095:160 JLINK_WriteReg(R2, 0x20000180)  returns 0x00 (0000ms, 45360ms total)
T25C4 8095:160 JLINK_WriteReg(R3, 0x00000000)  returns 0x00 (0000ms, 45360ms total)
T25C4 8095:160 JLINK_WriteReg(R4, 0x00000000)  returns 0x00 (0000ms, 45360ms total)
T25C4 8095:160 JLINK_WriteReg(R5, 0x00000000)  returns 0x00 (0000ms, 45360ms total)
T25C4 8095:160 JLINK_WriteReg(R6, 0x00000000)  returns 0x00 (0000ms, 45360ms total)
T25C4 8095:160 JLINK_WriteReg(R7, 0x00000000)  returns 0x00 (0000ms, 45360ms total)
T25C4 8095:160 JLINK_WriteReg(R8, 0x00000000)  returns 0x00 (0000ms, 45360ms total)
T25C4 8095:160 JLINK_WriteReg(R9, 0x2000017C)  returns 0x00 (0000ms, 45360ms total)
T25C4 8095:160 JLINK_WriteReg(R10, 0x00000000)  returns 0x00 (0000ms, 45360ms total)
T25C4 8095:160 JLINK_WriteReg(R11, 0x00000000)  returns 0x00 (0000ms, 45360ms total)
T25C4 8095:160 JLINK_WriteReg(R12, 0x00000000)  returns 0x00 (0000ms, 45360ms total)
T25C4 8095:160 JLINK_WriteReg(R13 (SP), 0x20001000)  returns 0x00 (0000ms, 45360ms total)
T25C4 8095:160 JLINK_WriteReg(R14, 0x20000001)  returns 0x00 (0000ms, 45360ms total)
T25C4 8095:160 JLINK_WriteReg(R15 (PC), 0x20000108)  returns 0x00 (0000ms, 45360ms total)
T25C4 8095:160 JLINK_WriteReg(XPSR, 0x01000000)  returns 0x00 (0000ms, 45360ms total)
T25C4 8095:160 JLINK_WriteReg(MSP, 0x20001000)  returns 0x00 (0000ms, 45360ms total)
T25C4 8095:160 JLINK_WriteReg(PSP, 0x20001000)  returns 0x00 (0000ms, 45360ms total)
T25C4 8095:160 JLINK_WriteReg(CFBP, 0x00000000)  returns 0x00 (0000ms, 45360ms total)
T25C4 8095:160 JLINK_SetBPEx(Addr = 0x20000000, Type = 0xFFFFFFF2)  returns 0x0000000A (0000ms, 45360ms total)
T25C4 8095:160 JLINK_Go() -- CPU_ReadMem(4 bytes @ 0xE0001000) (0003ms, 45363ms total)
T25C4 8095:163 JLINK_IsHalted()  returns FALSE (0001ms, 45364ms total)
T25C4 8095:189 JLINK_IsHalted() -- CPU_ReadMem(2 bytes @ 0x20000000)  returns TRUE (0004ms, 45367ms total)
T25C4 8095:193 JLINK_ReadReg(R15 (PC))  returns 0x20000000 (0000ms, 45363ms total)
T25C4 8095:193 JLINK_ClrBPEx(BPHandle = 0x0000000A)  returns 0x00 (0000ms, 45363ms total)
T25C4 8095:193 JLINK_ReadReg(R0)  returns 0x00000000 (0000ms, 45363ms total)
T25C4 8095:194 JLINK_WriteMem(0x20000180, 0x0280 Bytes, ...) - Data: 60 38 01 F0 35 F9 40 B1 19 49 0E 48 60 38 01 F0 ... -- CPU_WriteMem(640 bytes @ 0x20000180)  returns 0x280 (0008ms, 45371ms total)
T25C4 8095:202 JLINK_WriteMem(0x20000400, 0x0180 Bytes, ...) - Data: 7D 0B 53 EC 10 2B 03 F0 75 FD 41 EC 18 0B 03 F0 ... -- CPU_WriteMem(384 bytes @ 0x20000400)  returns 0x180 (0004ms, 45375ms total)
T25C4 8095:206 JLINK_WriteReg(R0, 0x08000C00)  returns 0x00 (0000ms, 45375ms total)
T25C4 8095:206 JLINK_WriteReg(R1, 0x00000400)  returns 0x00 (0000ms, 45375ms total)
T25C4 8095:207 JLINK_WriteReg(R2, 0x20000180)  returns 0x00 (0000ms, 45376ms total)
T25C4 8095:207 JLINK_WriteReg(R3, 0x00000000)  returns 0x00 (0000ms, 45376ms total)
T25C4 8095:207 JLINK_WriteReg(R4, 0x00000000)  returns 0x00 (0000ms, 45376ms total)
T25C4 8095:207 JLINK_WriteReg(R5, 0x00000000)  returns 0x00 (0000ms, 45376ms total)
T25C4 8095:207 JLINK_WriteReg(R6, 0x00000000)  returns 0x00 (0000ms, 45376ms total)
T25C4 8095:207 JLINK_WriteReg(R7, 0x00000000)  returns 0x00 (0000ms, 45376ms total)
T25C4 8095:207 JLINK_WriteReg(R8, 0x00000000)  returns 0x00 (0000ms, 45376ms total)
T25C4 8095:207 JLINK_WriteReg(R9, 0x2000017C)  returns 0x00 (0000ms, 45376ms total)
T25C4 8095:207 JLINK_WriteReg(R10, 0x00000000)  returns 0x00 (0000ms, 45376ms total)
T25C4 8095:207 JLINK_WriteReg(R11, 0x00000000)  returns 0x00 (0000ms, 45376ms total)
T25C4 8095:207 JLINK_WriteReg(R12, 0x00000000)  returns 0x00 (0000ms, 45376ms total)
T25C4 8095:207 JLINK_WriteReg(R13 (SP), 0x20001000)  returns 0x00 (0000ms, 45376ms total)
T25C4 8095:207 JLINK_WriteReg(R14, 0x20000001)  returns 0x00 (0000ms, 45376ms total)
T25C4 8095:207 JLINK_WriteReg(R15 (PC), 0x20000108)  returns 0x00 (0000ms, 45376ms total)
T25C4 8095:207 JLINK_WriteReg(XPSR, 0x01000000)  returns 0x00 (0000ms, 45376ms total)
T25C4 8095:207 JLINK_WriteReg(MSP, 0x20001000)  returns 0x00 (0000ms, 45376ms total)
T25C4 8095:207 JLINK_WriteReg(PSP, 0x20001000)  returns 0x00 (0000ms, 45376ms total)
T25C4 8095:207 JLINK_WriteReg(CFBP, 0x00000000)  returns 0x00 (0000ms, 45376ms total)
T25C4 8095:207 JLINK_SetBPEx(Addr = 0x20000000, Type = 0xFFFFFFF2)  returns 0x0000000B (0000ms, 45376ms total)
T25C4 8095:207 JLINK_Go() -- CPU_ReadMem(4 bytes @ 0xE0001000) (0003ms, 45379ms total)
T25C4 8095:210 JLINK_IsHalted()  returns FALSE (0001ms, 45380ms total)
T25C4 8095:234 JLINK_IsHalted() -- CPU_ReadMem(2 bytes @ 0x20000000)  returns TRUE (0004ms, 45383ms total)
T25C4 8095:238 JLINK_ReadReg(R15 (PC))  returns 0x20000000 (0000ms, 45379ms total)
T25C4 8095:238 JLINK_ClrBPEx(BPHandle = 0x0000000B)  returns 0x00 (0000ms, 45379ms total)
T25C4 8095:238 JLINK_ReadReg(R0)  returns 0x00000000 (0000ms, 45379ms total)
T25C4 8095:238 JLINK_WriteMem(0x20000180, 0x0280 Bytes, ...) - Data: 07 20 FF F7 B2 FE 00 24 23 E0 17 49 08 5D FF F7 ... -- CPU_WriteMem(640 bytes @ 0x20000180)  returns 0x280 (0008ms, 45387ms total)
T25C4 8095:246 JLINK_WriteMem(0x20000400, 0x0180 Bytes, ...) - Data: 80 40 01 F0 40 FC 00 20 AD F8 00 00 4F F4 82 70 ... -- CPU_WriteMem(384 bytes @ 0x20000400)  returns 0x180 (0006ms, 45393ms total)
T25C4 8095:252 JLINK_WriteReg(R0, 0x08001000)  returns 0x00 (0001ms, 45394ms total)
T25C4 8095:253 JLINK_WriteReg(R1, 0x00000400)  returns 0x00 (0000ms, 45394ms total)
T25C4 8095:253 JLINK_WriteReg(R2, 0x20000180)  returns 0x00 (0000ms, 45394ms total)
T25C4 8095:253 JLINK_WriteReg(R3, 0x00000000)  returns 0x00 (0000ms, 45394ms total)
T25C4 8095:253 JLINK_WriteReg(R4, 0x00000000)  returns 0x00 (0000ms, 45394ms total)
T25C4 8095:253 JLINK_WriteReg(R5, 0x00000000)  returns 0x00 (0000ms, 45394ms total)
T25C4 8095:253 JLINK_WriteReg(R6, 0x00000000)  returns 0x00 (0000ms, 45394ms total)
T25C4 8095:253 JLINK_WriteReg(R7, 0x00000000)  returns 0x00 (0001ms, 45395ms total)
T25C4 8095:254 JLINK_WriteReg(R8, 0x00000000)  returns 0x00 (0000ms, 45395ms total)
T25C4 8095:254 JLINK_WriteReg(R9, 0x2000017C)  returns 0x00 (0000ms, 45395ms total)
T25C4 8095:254 JLINK_WriteReg(R10, 0x00000000)  returns 0x00 (0000ms, 45395ms total)
T25C4 8095:254 JLINK_WriteReg(R11, 0x00000000)  returns 0x00 (0000ms, 45395ms total)
T25C4 8095:254 JLINK_WriteReg(R12, 0x00000000)  returns 0x00 (0000ms, 45395ms total)
T25C4 8095:254 JLINK_WriteReg(R13 (SP), 0x20001000)  returns 0x00 (0001ms, 45396ms total)
T25C4 8095:255 JLINK_WriteReg(R14, 0x20000001)  returns 0x00 (0000ms, 45396ms total)
T25C4 8095:255 JLINK_WriteReg(R15 (PC), 0x20000108)  returns 0x00 (0000ms, 45396ms total)
T25C4 8095:255 JLINK_WriteReg(XPSR, 0x01000000)  returns 0x00 (0000ms, 45396ms total)
T25C4 8095:255 JLINK_WriteReg(MSP, 0x20001000)  returns 0x00 (0000ms, 45396ms total)
T25C4 8095:255 JLINK_WriteReg(PSP, 0x20001000)  returns 0x00 (0000ms, 45396ms total)
T25C4 8095:255 JLINK_WriteReg(CFBP, 0x00000000)  returns 0x00 (0000ms, 45396ms total)
T25C4 8095:255 JLINK_SetBPEx(Addr = 0x20000000, Type = 0xFFFFFFF2)  returns 0x0000000C (0000ms, 45396ms total)
T25C4 8095:255 JLINK_Go() -- CPU_ReadMem(4 bytes @ 0xE0001000) (0004ms, 45400ms total)
T25C4 8095:259 JLINK_IsHalted()  returns FALSE (0001ms, 45401ms total)
T25C4 8095:271 JLINK_IsHalted() -- CPU_ReadMem(2 bytes @ 0x20000000)  returns TRUE (0004ms, 45404ms total)
T25C4 8095:275 JLINK_ReadReg(R15 (PC))  returns 0x20000000 (0000ms, 45400ms total)
T25C4 8095:275 JLINK_ClrBPEx(BPHandle = 0x0000000C)  returns 0x00 (0000ms, 45400ms total)
T25C4 8095:275 JLINK_ReadReg(R0)  returns 0x00000000 (0000ms, 45400ms total)
T25C4 8095:275 JLINK_WriteMem(0x20000180, 0x0280 Bytes, ...) - Data: 28 46 03 F0 8C FA 41 EC 1A 0B 9F ED 26 0B 53 EC ... -- CPU_WriteMem(640 bytes @ 0x20000180)  returns 0x280 (0008ms, 45408ms total)
T25C4 8095:283 JLINK_WriteMem(0x20000400, 0x0180 Bytes, ...) - Data: 70 B5 04 46 0D 46 4F F4 16 76 01 21 88 07 02 F0 ... -- CPU_WriteMem(384 bytes @ 0x20000400)  returns 0x180 (0005ms, 45413ms total)
T25C4 8095:288 JLINK_WriteReg(R0, 0x08001400)  returns 0x00 (0000ms, 45413ms total)
T25C4 8095:288 JLINK_WriteReg(R1, 0x00000400)  returns 0x00 (0000ms, 45413ms total)
T25C4 8095:288 JLINK_WriteReg(R2, 0x20000180)  returns 0x00 (0000ms, 45413ms total)
